Circuit: * D:\Commander Rex\My Files\Projects\Electronics\PC Oscilloscope\Osciloscope.asc

Direct Newton iteration for .op point succeeded.
Semiconductor Device Operating Points:
                        --- Diodes ---
Name:      d3          d2          d1
Model:   1n4148      1n4148      1n4148
Id:      3.09e-03    3.09e-03    3.09e-03
Vd:      6.37e-01    6.37e-01    6.37e-01
Req:     1.47e+01    1.47e+01    1.47e+01
CAP:     1.37e-09    1.37e-09    1.37e-09

                        --- Bipolar Transistors ---
Name:       q1
Model:      npn
Ib:       3.16e-07
Ic:       3.16e-05
Vbe:      6.85e-01
Vbc:     -2.50e+00
Vce:      3.18e+00
BetaDC:   1.00e+02
Gm:       1.22e-03
Rpi:      8.18e+04
Rx:       0.00e+00
Ro:       2.45e+56
Cbe:      0.00e+00
Cbc:      0.00e+00
Cjs:      0.00e+00
BetaAC:   1.00e+02
Cbx:      0.00e+00
Ft:       0.00e+00



Date: Thu Dec 28 18:31:44 2017
Total elapsed time: 0.050 seconds.

tnom = 27
temp = 27
method = trap
totiter = 11
traniter = 0
tranpoints = 0
accept = 0
rejected = 0
matrix size = 12
fillins = 0
solver = Normal
Matrix Compiler1: 536 bytes object code size
Matrix Compiler2: 868 bytes object code size
